
T20BC 000:066 SEGGER J-Link V4.56d Log File (0000ms, 0066ms total)
T20BC 000:066 DLL Compiled: Nov 12 2012 20:40:34 (0000ms, 0066ms total)
T20BC 000:066 Logging started @ 2017-12-05 19:33 (0000ms, 0066ms total)
T20BC 000:067 JLINK_SetWarnOutHandler(...) (0000ms, 0066ms total)
T20BC 000:067 JLINK_OpenEx(...)
Firmware: J-Link ARM V8 compiled Jan 31 2018 18:34:52
Hardware: V8.00
S/N: 20080643
Feature(s): RDI,FlashDL,FlashBP,JFlash,GDBFull  returns O.K. (0027ms, 0093ms total)
T20BC 000:094 JLINK_SetErrorOutHandler(...) (0000ms, 0093ms total)
T20BC 000:094 JLINK_ExecCommand("ProjectFile = "C:\Users\lvchunhao\Desktop\STM32L071xx_FreeRtos_LoraHw3_Ver1.0.1\MDK-ARM\JLinkSettings.ini"", ...)
                JLINK_AddMirrorAreaEx(Addr = 0x00000000, Size = 0x00000000) (0000ms, 0000ms total)
              Device "UNSPECIFIED" selected (0 KB flash, 0 KB RAM).  returns 0x00 (0002ms, 0095ms total)
T20BC 000:104 JLINK_ExecCommand("Device = STM32L071CB", ...)
                JLINK_AddMirrorAreaEx(Addr = 0x00000000, Size = 0x00000000) (0000ms, 0000ms total)
              Device "UNSPECIFIED" selected (0 KB flash, 0 KB RAM).  returns 0x00 (0004ms, 0099ms total)
T20BC 000:108 JLINK_ExecCommand("DisableConnectionTimeout", ...)  returns 0x00 (0000ms, 0099ms total)
T20BC 000:108 JLINK_GetHardwareVersion()  returns 0x13880 (0000ms, 0099ms total)
T20BC 000:108 JLINK_GetDLLVersion()  returns 45604 (0000ms, 0099ms total)
T20BC 000:108 JLINK_GetFirmwareString(...) (0000ms, 0099ms total)
T20BC 000:121 JLINK_GetDLLVersion()  returns 45604 (0000ms, 0099ms total)
T20BC 000:121 JLINK_GetCompileDateTime() (0000ms, 0099ms total)
T20BC 000:123 JLINK_GetFirmwareString(...) (0000ms, 0099ms total)
T20BC 000:125 JLINK_GetHardwareVersion()  returns 0x13880 (0000ms, 0099ms total)
T20BC 000:135 JLINK_TIF_Select(JLINKARM_TIF_SWD)  returns 0x00 (0005ms, 0104ms total)
T20BC 000:140 JLINK_SetSpeed(2000) (0001ms, 0105ms total)
T20BC 000:141 JLINK_GetId() >0x108 TIF>Found SWD-DP with ID 0x0BC11477 >0x0D TIF> >0x21 TIF> >0x0D TIF> >0x28 TIF> >0x0D TIF> >0x28 TIF> >0x0D TIF> >0x21 TIF> >0x0D TIF> >0x21 TIF> >0x0D TIF> >0x28 TIF> >0x0D TIF> >0x21 TIF> >0x0D TIF> >0x21 TIF> >0x0D TIF> >0x21 TIF> >0x0D TIF> >0x21 TIF> >0x0D TIF> >0x28 TIF> >0x0D TIF> >0x28 TIF> >0x0D TIF> >0x28 TIF> >0x0D TIF> >0x21 TIF> >0x0D TIF> >0x21 TIF> >0x0D TIF> >0x21 TIF> >0x0D TIF> >0x28 TIF> >0x0D TIF> >0x28 TIF> >0x0D TIF> >0x21 TIF> >0x0D TIF>
 >0x21 TIF> >0x0D TIF> >0x28 TIF> >0x0D TIF> >0x21 TIF> >0x0D TIF> >0x21 TIF> >0x0D TIF> >0x28 TIF> >0x0D TIF> >0x28 TIF> >0x0D TIF> >0x28 TIF> >0x0D TIF> >0x21 TIF> >0x0D TIF> >0x21 TIF> >0x0D TIF> >0x28 TIF> >0x0D TIF> >0x28 TIF> >0x0D TIF> >0x28 TIF> >0x0D TIF> >0x21 TIF> >0x0D TIF> >0x21 TIF> >0x0D TIF> >0x21 TIF> >0x0D TIF> >0x28 TIF> >0x0D TIF> >0x21 TIF> >0x0D TIF> >0x21 TIF> >0x0D TIF> >0x28 TIF> >0x0D TIF> >0x21 TIF> >0x0D TIF> >0x21 TIF>FPUnit: 4 code (BP) slots and 0 literal slots >0x0D TIF>
 >0x28 TIF> >0x0D TIF> >0x21 TIF> >0x0D TIF> >0x21 TIF> >0x0D TIF> >0x28 TIF> >0x0D TIF> >0x28 TIF> >0x0D TIF> >0x28 TIF> >0x0D TIF> >0x21 TIF> >0x0D TIF> >0x21 TIF> >0x0D TIF> >0x28 TIF> >0x0D TIF> >0x21 TIF> >0x0D TIF> >0x21 TIF> >0x0D TIF> >0x28 TIF> >0x0D TIF> >0x21 TIF> >0x0D TIF> >0x21 TIF>Found Cortex-M0 r0p1, Little endian. >0x0D TIF> >0x28 TIF> >0x0D TIF> >0x21 TIF>  returns 0x0BC11477 (0128ms, 0233ms total)
T20BC 000:269 JLINK_GetDeviceFamily()  returns 6 (0000ms, 0233ms total)
T20BC 000:271 JLINK_ReadMem (0xE00FFFF0, 0x0010 Bytes, ...) -- CPU is running -- CPU_ReadMem(16 bytes @ 0xE00FFFF0) -- Data:  0D 00 00 00 10 00 00 00 05 00 00 00 B1 00 00 00  returns 0x00 (0002ms, 0235ms total)
T20BC 000:273 JLINK_ReadMem (0xE00FFFD0, 0x0020 Bytes, ...) -- CPU is running -- CPU_ReadMem(32 bytes @ 0xE00FFFD0) -- Data:  04 00 00 00 00 00 00 00 00 00 00 00 00 00 00 00 ...  returns 0x00 (0001ms, 0236ms total)
T20BC 000:274 JLINK_ReadMem (0xE00FF000, 0x0018 Bytes, ...) -- CPU is running -- CPU_ReadMem(24 bytes @ 0xE00FF000) -- Data:  03 F0 F0 FF 03 20 F0 FF 03 30 F0 FF 00 00 00 00 ...  returns 0x00 (0001ms, 0237ms total)
T20BC 000:275 JLINK_ReadMemU32(0xE000ED00, 0x0001 Items, ...) -- CPU is running -- CPU_ReadMem(4 bytes @ 0xE000ED00) -- Data:  01 C6 0C 41  returns 0x01 (0001ms, 0238ms total)
T20BC 000:276 JLINK_SetResetType(JLINKARM_RESET_TYPE_NORMAL)  returns JLINKARM_RESET_TYPE_NORMAL (0000ms, 0238ms total)
T20BC 000:276 JLINK_Reset() -- CPU_WriteMem(4 bytes @ 0xE0002000) (0015ms, 0253ms total)
T20BC 000:291 JLINK_Halt()  returns 0x00 (0000ms, 0253ms total)
T20BC 000:291 JLINK_IsHalted()  returns TRUE (0000ms, 0253ms total)
T20BC 000:291 JLINK_ReadMemU32(0xE000EDF0, 0x0001 Items, ...) -- CPU_ReadMem(4 bytes @ 0xE000EDF0) -- Data:  03 00 03 01  returns 0x01 (0001ms, 0254ms total)
T20BC 000:292 JLINK_WriteU32(0xE000EDF0, 0xA05F0003) -- CPU_WriteMem(4 bytes @ 0xE000EDF0)  returns 0x00 (0001ms, 0255ms total)
T20BC 000:293 JLINK_WriteU32(0xE000EDFC, 0x01000000) -- CPU_WriteMem(4 bytes @ 0xE000EDFC)  returns 0x00 (0001ms, 0256ms total)
T20BC 000:304 JLINK_GetHWStatus(...)  returns 0x00 (0001ms, 0257ms total)
T20BC 000:313 JLINK_GetNumBPUnits(Type = 0xFFFFFF00)  returns 0x04 (0000ms, 0257ms total)
T20BC 000:313 JLINK_GetNumBPUnits(Type = 0xF0)  returns 0x2000 (0000ms, 0257ms total)
T20BC 000:313 JLINK_GetNumWPUnits()  returns 0x02 (0000ms, 0257ms total)
T20BC 000:320 JLINK_GetSpeed()  returns 0x7D0 (0000ms, 0257ms total)
T20BC 000:324 JLINK_ReadMemU32(0xE000E004, 0x0001 Items, ...) -- CPU_ReadMem(4 bytes @ 0xE000E004) -- Data:  00 00 00 00  returns 0x01 (0002ms, 0259ms total)
T20BC 000:326 JLINK_Halt()  returns 0x00 (0000ms, 0259ms total)
T20BC 000:326 JLINK_IsHalted()  returns TRUE (0000ms, 0259ms total)
T20BC 000:329 JLINK_WriteMem(0x20000000, 0x0140 Bytes, ...) -- Data:  00 BE 0A E0 0D 78 2D 06 68 40 08 24 40 00 00 D3 ... -- CPU_WriteMem(320 bytes @ 0x20000000)  returns 0x140 (0004ms, 0263ms total)
T20BC 000:333 JLINK_WriteReg(R0, 0x08000000)  returns 0x00 (0000ms, 0263ms total)
T20BC 000:333 JLINK_WriteReg(R1, 0x01E84800)  returns 0x00 (0000ms, 0263ms total)
T20BC 000:333 JLINK_WriteReg(R2, 0x00000001)  returns 0x00 (0000ms, 0263ms total)
T20BC 000:333 JLINK_WriteReg(R3, 0x00000000)  returns 0x00 (0000ms, 0263ms total)
T20BC 000:333 JLINK_WriteReg(R4, 0x00000000)  returns 0x00 (0000ms, 0263ms total)
T20BC 000:333 JLINK_WriteReg(R5, 0x00000000)  returns 0x00 (0000ms, 0263ms total)
T20BC 000:333 JLINK_WriteReg(R6, 0x00000000)  returns 0x00 (0000ms, 0263ms total)
T20BC 000:333 JLINK_WriteReg(R7, 0x00000000)  returns 0x00 (0000ms, 0263ms total)
T20BC 000:333 JLINK_WriteReg(R8, 0x00000000)  returns 0x00 (0000ms, 0263ms total)
T20BC 000:333 JLINK_WriteReg(R9, 0x2000013C)  returns 0x00 (0000ms, 0263ms total)
T20BC 000:333 JLINK_WriteReg(R10, 0x00000000)  returns 0x00 (0000ms, 0263ms total)
T20BC 000:333 JLINK_WriteReg(R11, 0x00000000)  returns 0x00 (0000ms, 0263ms total)
T20BC 000:333 JLINK_WriteReg(R12, 0x00000000)  returns 0x00 (0000ms, 0263ms total)
T20BC 000:333 JLINK_WriteReg(R13, 0x20001000)  returns 0x00 (0000ms, 0263ms total)
T20BC 000:333 JLINK_WriteReg(R14, 0x20000001)  returns 0x00 (0000ms, 0263ms total)
T20BC 000:333 JLINK_WriteReg(R15, 0x20000020)  returns 0x00 (0000ms, 0263ms total)
T20BC 000:333 JLINK_WriteReg(XPSR, 0x01000000)  returns 0x00 (0000ms, 0263ms total)
T20BC 000:333 JLINK_WriteReg(MSP, 0x20001000)  returns 0x00 (0000ms, 0263ms total)
T20BC 000:333 JLINK_WriteReg(PSP, 0x20001000)  returns 0x00 (0000ms, 0263ms total)
T20BC 000:333 JLINK_WriteReg(CFBP, 0x00000000)  returns 0x00 (0000ms, 0263ms total)
T20BC 000:333 JLINK_SetBPEx(Addr = 0x20000000, Type = 0xFFFFFFF2) -- CPU_ReadMem(4 bytes @ 0x20000000) -- CPU_WriteMem(4 bytes @ 0x20000000) -- CPU_ReadMem(4 bytes @ 0x20000000) -- CPU_WriteMem(4 bytes @ 0x20000000) -- CPU_ReadMem(2 bytes @ 0x20000000)  returns 0x00000001 (0005ms, 0268ms total)
T20BC 000:338 JLINK_Go() -- CPU_WriteMem(2 bytes @ 0x20000000) -- CPU_WriteMem(4 bytes @ 0xE0002008) -- CPU_WriteMem(4 bytes @ 0xE000200C) -- CPU_WriteMem(4 bytes @ 0xE0002010) -- CPU_WriteMem(4 bytes @ 0xE0002014) (0008ms, 0276ms total)
T20BC 000:346 JLINK_IsHalted() -- CPU_ReadMem(2 bytes @ 0x20000000)  returns TRUE (0006ms, 0282ms total)
T20BC 000:352 JLINK_ReadReg(R15)  returns 0x20000000 (0000ms, 0276ms total)
T20BC 000:352 JLINK_ClrBPEx(BPHandle = 0x00000001)  returns 0x00 (0000ms, 0276ms total)
T20BC 000:352 JLINK_ReadReg(R0)  returns 0x00000000 (0000ms, 0276ms total)
T20BC 000:352 JLINK_WriteReg(R0, 0x08000000)  returns 0x00 (0000ms, 0276ms total)
T20BC 000:352 JLINK_WriteReg(R1, 0x00000080)  returns 0x00 (0000ms, 0276ms total)
T20BC 000:352 JLINK_WriteReg(R2, 0x00000000)  returns 0x00 (0000ms, 0276ms total)
T20BC 000:352 JLINK_WriteReg(R3, 0x00000000)  returns 0x00 (0000ms, 0276ms total)
T20BC 000:352 JLINK_WriteReg(R4, 0x00000000)  returns 0x00 (0000ms, 0276ms total)
T20BC 000:352 JLINK_WriteReg(R5, 0x00000000)  returns 0x00 (0000ms, 0276ms total)
T20BC 000:352 JLINK_WriteReg(R6, 0x00000000)  returns 0x00 (0000ms, 0276ms total)
T20BC 000:352 JLINK_WriteReg(R7, 0x00000000)  returns 0x00 (0000ms, 0276ms total)
T20BC 000:352 JLINK_WriteReg(R8, 0x00000000)  returns 0x00 (0000ms, 0276ms total)
T20BC 000:352 JLINK_WriteReg(R9, 0x2000013C)  returns 0x00 (0000ms, 0276ms total)
T20BC 000:352 JLINK_WriteReg(R10, 0x00000000)  returns 0x00 (0000ms, 0276ms total)
T20BC 000:352 JLINK_WriteReg(R11, 0x00000000)  returns 0x00 (0000ms, 0276ms total)
T20BC 000:352 JLINK_WriteReg(R12, 0x00000000)  returns 0x00 (0000ms, 0276ms total)
T20BC 000:352 JLINK_WriteReg(R13, 0x20001000)  returns 0x00 (0000ms, 0276ms total)
T20BC 000:352 JLINK_WriteReg(R14, 0x20000001)  returns 0x00 (0000ms, 0276ms total)
T20BC 000:352 JLINK_WriteReg(R15, 0x200000B0)  returns 0x00 (0001ms, 0277ms total)
T20BC 000:353 JLINK_WriteReg(XPSR, 0x01000000)  returns 0x00 (0000ms, 0277ms total)
T20BC 000:353 JLINK_WriteReg(MSP, 0x20001000)  returns 0x00 (0000ms, 0277ms total)
T20BC 000:353 JLINK_WriteReg(PSP, 0x20001000)  returns 0x00 (0000ms, 0277ms total)
T20BC 000:353 JLINK_WriteReg(CFBP, 0x00000000)  returns 0x00 (0000ms, 0277ms total)
T20BC 000:353 JLINK_SetBPEx(Addr = 0x20000000, Type = 0xFFFFFFF2)  returns 0x00000002 (0000ms, 0277ms total)
T20BC 000:353 JLINK_Go() (0002ms, 0279ms total)
T20BC 000:355 JLINK_IsHalted() -- CPU_ReadMem(2 bytes @ 0x20000000)  returns TRUE (0006ms, 0285ms total)
T20BC 000:361 JLINK_ReadReg(R15)  returns 0x20000000 (0000ms, 0279ms total)
T20BC 000:361 JLINK_ClrBPEx(BPHandle = 0x00000002)  returns 0x00 (0000ms, 0279ms total)
T20BC 000:361 JLINK_ReadReg(R0)  returns 0x00000001 (0000ms, 0279ms total)
T20BC 000:361 JLINK_WriteReg(R0, 0x08000000)  returns 0x00 (0000ms, 0279ms total)
T20BC 000:361 JLINK_WriteReg(R1, 0x00000080)  returns 0x00 (0000ms, 0279ms total)
T20BC 000:361 JLINK_WriteReg(R2, 0x00000000)  returns 0x00 (0000ms, 0279ms total)
T20BC 000:361 JLINK_WriteReg(R3, 0x00000000)  returns 0x00 (0000ms, 0279ms total)
T20BC 000:361 JLINK_WriteReg(R4, 0x00000000)  returns 0x00 (0000ms, 0279ms total)
T20BC 000:361 JLINK_WriteReg(R5, 0x00000000)  returns 0x00 (0000ms, 0279ms total)
T20BC 000:361 JLINK_WriteReg(R6, 0x00000000)  returns 0x00 (0000ms, 0279ms total)
T20BC 000:361 JLINK_WriteReg(R7, 0x00000000)  returns 0x00 (0000ms, 0279ms total)
T20BC 000:361 JLINK_WriteReg(R8, 0x00000000)  returns 0x00 (0000ms, 0279ms total)
T20BC 000:361 JLINK_WriteReg(R9, 0x2000013C)  returns 0x00 (0000ms, 0279ms total)
T20BC 000:361 JLINK_WriteReg(R10, 0x00000000)  returns 0x00 (0000ms, 0279ms total)
T20BC 000:361 JLINK_WriteReg(R11, 0x00000000)  returns 0x00 (0000ms, 0279ms total)
T20BC 000:361 JLINK_WriteReg(R12, 0x00000000)  returns 0x00 (0000ms, 0279ms total)
T20BC 000:361 JLINK_WriteReg(R13, 0x20001000)  returns 0x00 (0000ms, 0279ms total)
T20BC 000:361 JLINK_WriteReg(R14, 0x20000001)  returns 0x00 (0000ms, 0279ms total)
T20BC 000:361 JLINK_WriteReg(R15, 0x2000007A)  returns 0x00 (0000ms, 0279ms total)
T20BC 000:361 JLINK_WriteReg(XPSR, 0x01000000)  returns 0x00 (0000ms, 0279ms total)
T20BC 000:361 JLINK_WriteReg(MSP, 0x20001000)  returns 0x00 (0000ms, 0279ms total)
T20BC 000:361 JLINK_WriteReg(PSP, 0x20001000)  returns 0x00 (0000ms, 0279ms total)
T20BC 000:361 JLINK_WriteReg(CFBP, 0x00000000)  returns 0x00 (0000ms, 0279ms total)
T20BC 000:361 JLINK_SetBPEx(Addr = 0x20000000, Type = 0xFFFFFFF2)  returns 0x00000003 (0000ms, 0279ms total)
T20BC 000:361 JLINK_Go() (0003ms, 0282ms total)
T20BC 000:364 JLINK_IsHalted()  returns FALSE (0001ms, 0283ms total)
T20BC 000:403 JLINK_IsHalted() -- CPU_ReadMem(2 bytes @ 0x20000000)  returns TRUE (0006ms, 0288ms total)
T20BC 000:409 JLINK_ReadReg(R15)  returns 0x20000000 (0000ms, 0282ms total)
T20BC 000:409 JLINK_ClrBPEx(BPHandle = 0x00000003)  returns 0x00 (0000ms, 0282ms total)
T20BC 000:409 JLINK_ReadReg(R0)  returns 0x00000000 (0000ms, 0282ms total)
T20BC 000:409 JLINK_WriteReg(R0, 0x08000080)  returns 0x00 (0000ms, 0282ms total)
T20BC 000:409 JLINK_WriteReg(R1, 0x00000080)  returns 0x00 (0000ms, 0282ms total)
T20BC 000:409 JLINK_WriteReg(R2, 0x00000000)  returns 0x00 (0000ms, 0282ms total)
T20BC 000:409 JLINK_WriteReg(R3, 0x00000000)  returns 0x00 (0000ms, 0282ms total)
T20BC 000:409 JLINK_WriteReg(R4, 0x00000000)  returns 0x00 (0000ms, 0282ms total)
T20BC 000:409 JLINK_WriteReg(R5, 0x00000000)  returns 0x00 (0000ms, 0282ms total)
T20BC 000:409 JLINK_WriteReg(R6, 0x00000000)  returns 0x00 (0000ms, 0282ms total)
T20BC 000:409 JLINK_WriteReg(R7, 0x00000000)  returns 0x00 (0000ms, 0282ms total)
T20BC 000:410 JLINK_WriteReg(R8, 0x00000000)  returns 0x00 (0000ms, 0282ms total)
T20BC 000:410 JLINK_WriteReg(R9, 0x2000013C)  returns 0x00 (0000ms, 0282ms total)
T20BC 000:410 JLINK_WriteReg(R10, 0x00000000)  returns 0x00 (0000ms, 0282ms total)
T20BC 000:410 JLINK_WriteReg(R11, 0x00000000)  returns 0x00 (0000ms, 0282ms total)
T20BC 000:410 JLINK_WriteReg(R12, 0x00000000)  returns 0x00 (0000ms, 0282ms total)
T20BC 000:410 JLINK_WriteReg(R13, 0x20001000)  returns 0x00 (0000ms, 0282ms total)
T20BC 000:410 JLINK_WriteReg(R14, 0x20000001)  returns 0x00 (0000ms, 0282ms total)
T20BC 000:410 JLINK_WriteReg(R15, 0x200000B0)  returns 0x00 (0000ms, 0282ms total)
T20BC 000:410 JLINK_WriteReg(XPSR, 0x01000000)  returns 0x00 (0000ms, 0282ms total)
T20BC 000:410 JLINK_WriteReg(MSP, 0x20001000)  returns 0x00 (0000ms, 0282ms total)
T20BC 000:410 JLINK_WriteReg(PSP, 0x20001000)  returns 0x00 (0000ms, 0282ms total)
T20BC 000:410 JLINK_WriteReg(CFBP, 0x00000000)  returns 0x00 (0000ms, 0282ms total)
T20BC 000:410 JLINK_SetBPEx(Addr = 0x20000000, Type = 0xFFFFFFF2)  returns 0x00000004 (0000ms, 0282ms total)
T20BC 000:410 JLINK_Go() (0003ms, 0285ms total)
T20BC 000:413 JLINK_IsHalted() -- CPU_ReadMem(2 bytes @ 0x20000000)  returns TRUE (0006ms, 0291ms total)
T20BC 000:419 JLINK_ReadReg(R15)  returns 0x20000000 (0000ms, 0285ms total)
T20BC 000:419 JLINK_ClrBPEx(BPHandle = 0x00000004)  returns 0x00 (0000ms, 0285ms total)
T20BC 000:419 JLINK_ReadReg(R0)  returns 0x00000001 (0000ms, 0285ms total)
T20BC 000:419 JLINK_WriteReg(R0, 0x08000080)  returns 0x00 (0000ms, 0285ms total)
T20BC 000:419 JLINK_WriteReg(R1, 0x00000080)  returns 0x00 (0000ms, 0285ms total)
T20BC 000:419 JLINK_WriteReg(R2, 0x00000000)  returns 0x00 (0000ms, 0285ms total)
T20BC 000:419 JLINK_WriteReg(R3, 0x00000000)  returns 0x00 (0000ms, 0285ms total)
T20BC 000:419 JLINK_WriteReg(R4, 0x00000000)  returns 0x00 (0000ms, 0285ms total)
T20BC 000:419 JLINK_WriteReg(R5, 0x00000000)  returns 0x00 (0000ms, 0285ms total)
T20BC 000:419 JLINK_WriteReg(R6, 0x00000000)  returns 0x00 (0000ms, 0285ms total)
T20BC 000:419 JLINK_WriteReg(R7, 0x00000000)  returns 0x00 (0000ms, 0285ms total)
T20BC 000:419 JLINK_WriteReg(R8, 0x00000000)  returns 0x00 (0000ms, 0285ms total)
T20BC 000:419 JLINK_WriteReg(R9, 0x2000013C)  returns 0x00 (0000ms, 0285ms total)
T20BC 000:419 JLINK_WriteReg(R10, 0x00000000)  returns 0x00 (0000ms, 0285ms total)
T20BC 000:419 JLINK_WriteReg(R11, 0x00000000)  returns 0x00 (0000ms, 0285ms total)
T20BC 000:419 JLINK_WriteReg(R12, 0x00000000)  returns 0x00 (0000ms, 0285ms total)
T20BC 000:419 JLINK_WriteReg(R13, 0x20001000)  returns 0x00 (0000ms, 0285ms total)
T20BC 000:419 JLINK_WriteReg(R14, 0x20000001)  returns 0x00 (0000ms, 0285ms total)
T20BC 000:419 JLINK_WriteReg(R15, 0x2000007A)  returns 0x00 (0000ms, 0285ms total)
T20BC 000:419 JLINK_WriteReg(XPSR, 0x01000000)  returns 0x00 (0000ms, 0285ms total)
T20BC 000:419 JLINK_WriteReg(MSP, 0x20001000)  returns 0x00 (0000ms, 0285ms total)
T20BC 000:419 JLINK_WriteReg(PSP, 0x20001000)  returns 0x00 (0000ms, 0285ms total)
T20BC 000:419 JLINK_WriteReg(CFBP, 0x00000000)  returns 0x00 (0000ms, 0285ms total)
T20BC 000:419 JLINK_SetBPEx(Addr = 0x20000000, Type = 0xFFFFFFF2)  returns 0x00000005 (0000ms, 0285ms total)
T20BC 000:419 JLINK_Go() (0003ms, 0288ms total)
T20BC 000:422 JLINK_IsHalted()  returns FALSE (0001ms, 0289ms total)
T20BC 000:439 JLINK_IsHalted() -- CPU_ReadMem(2 bytes @ 0x20000000)  returns TRUE (0007ms, 0295ms total)
T20BC 000:446 JLINK_ReadReg(R15)  returns 0x20000000 (0000ms, 0288ms total)
T20BC 000:446 JLINK_ClrBPEx(BPHandle = 0x00000005)  returns 0x00 (0000ms, 0288ms total)
T20BC 000:446 JLINK_ReadReg(R0)  returns 0x00000000 (0000ms, 0288ms total)
T20BC 000:447 JLINK_WriteReg(R0, 0x08000100)  returns 0x00 (0000ms, 0288ms total)
T20BC 000:447 JLINK_WriteReg(R1, 0x00000080)  returns 0x00 (0000ms, 0288ms total)
T20BC 000:447 JLINK_WriteReg(R2, 0x00000000)  returns 0x00 (0000ms, 0288ms total)
T20BC 000:447 JLINK_WriteReg(R3, 0x00000000)  returns 0x00 (0000ms, 0288ms total)
T20BC 000:447 JLINK_WriteReg(R4, 0x00000000)  returns 0x00 (0000ms, 0288ms total)
T20BC 000:447 JLINK_WriteReg(R5, 0x00000000)  returns 0x00 (0000ms, 0288ms total)
T20BC 000:447 JLINK_WriteReg(R6, 0x00000000)  returns 0x00 (0000ms, 0288ms total)
T20BC 000:447 JLINK_WriteReg(R7, 0x00000000)  returns 0x00 (0000ms, 0288ms total)
T20BC 000:447 JLINK_WriteReg(R8, 0x00000000)  returns 0x00 (0000ms, 0288ms total)
T20BC 000:447 JLINK_WriteReg(R9, 0x2000013C)  returns 0x00 (0000ms, 0288ms total)
T20BC 000:447 JLINK_WriteReg(R10, 0x00000000)  returns 0x00 (0000ms, 0288ms total)
T20BC 000:447 JLINK_WriteReg(R11, 0x00000000)  returns 0x00 (0000ms, 0288ms total)
T20BC 000:447 JLINK_WriteReg(R12, 0x00000000)  returns 0x00 (0000ms, 0288ms total)
T20BC 000:447 JLINK_WriteReg(R13, 0x20001000)  returns 0x00 (0000ms, 0288ms total)
T20BC 000:447 JLINK_WriteReg(R14, 0x20000001)  returns 0x00 (0000ms, 0288ms total)
T20BC 000:447 JLINK_WriteReg(R15, 0x200000B0)  returns 0x00 (0000ms, 0288ms total)
T20BC 000:447 JLINK_WriteReg(XPSR, 0x01000000)  returns 0x00 (0000ms, 0288ms total)
T20BC 000:447 JLINK_WriteReg(MSP, 0x20001000)  returns 0x00 (0000ms, 0288ms total)
T20BC 000:447 JLINK_WriteReg(PSP, 0x20001000)  returns 0x00 (0000ms, 0288ms total)
T20BC 000:447 JLINK_WriteReg(CFBP, 0x00000000)  returns 0x00 (0000ms, 0288ms total)
T20BC 000:447 JLINK_SetBPEx(Addr = 0x20000000, Type = 0xFFFFFFF2)  returns 0x00000006 (0000ms, 0288ms total)
T20BC 000:447 JLINK_Go() (0002ms, 0290ms total)
T20BC 000:449 JLINK_IsHalted() -- CPU_ReadMem(2 bytes @ 0x20000000)  returns TRUE (0006ms, 0296ms total)
T20BC 000:455 JLINK_ReadReg(R15)  returns 0x20000000 (0000ms, 0290ms total)
T20BC 000:455 JLINK_ClrBPEx(BPHandle = 0x00000006)  returns 0x00 (0000ms, 0290ms total)
T20BC 000:455 JLINK_ReadReg(R0)  returns 0x00000001 (0000ms, 0290ms total)
T20BC 000:455 JLINK_WriteReg(R0, 0x08000100)  returns 0x00 (0000ms, 0290ms total)
T20BC 000:455 JLINK_WriteReg(R1, 0x00000080)  returns 0x00 (0000ms, 0290ms total)
T20BC 000:455 JLINK_WriteReg(R2, 0x00000000)  returns 0x00 (0000ms, 0290ms total)
T20BC 000:455 JLINK_WriteReg(R3, 0x00000000)  returns 0x00 (0000ms, 0290ms total)
T20BC 000:455 JLINK_WriteReg(R4, 0x00000000)  returns 0x00 (0000ms, 0290ms total)
T20BC 000:455 JLINK_WriteReg(R5, 0x00000000)  returns 0x00 (0000ms, 0290ms total)
T20BC 000:455 JLINK_WriteReg(R6, 0x00000000)  returns 0x00 (0000ms, 0290ms total)
T20BC 000:455 JLINK_WriteReg(R7, 0x00000000)  returns 0x00 (0000ms, 0290ms total)
T20BC 000:455 JLINK_WriteReg(R8, 0x00000000)  returns 0x00 (0000ms, 0290ms total)
T20BC 000:455 JLINK_WriteReg(R9, 0x2000013C)  returns 0x00 (0000ms, 0290ms total)
T20BC 000:455 JLINK_WriteReg(R10, 0x00000000)  returns 0x00 (0000ms, 0290ms total)
T20BC 000:455 JLINK_WriteReg(R11, 0x00000000)  returns 0x00 (0000ms, 0290ms total)
T20BC 000:455 JLINK_WriteReg(R12, 0x00000000)  returns 0x00 (0000ms, 0290ms total)
T20BC 000:455 JLINK_WriteReg(R13, 0x20001000)  returns 0x00 (0000ms, 0290ms total)
T20BC 000:455 JLINK_WriteReg(R14, 0x20000001)  returns 0x00 (0000ms, 0290ms total)
T20BC 000:455 JLINK_WriteReg(R15, 0x2000007A)  returns 0x00 (0000ms, 0290ms total)
T20BC 000:455 JLINK_WriteReg(XPSR, 0x01000000)  returns 0x00 (0000ms, 0290ms total)
T20BC 000:455 JLINK_WriteReg(MSP, 0x20001000)  returns 0x00 (0000ms, 0290ms total)
T20BC 000:455 JLINK_WriteReg(PSP, 0x20001000)  returns 0x00 (0000ms, 0290ms total)
T20BC 000:455 JLINK_WriteReg(CFBP, 0x00000000)  returns 0x00 (0000ms, 0290ms total)
T20BC 000:455 JLINK_SetBPEx(Addr = 0x20000000, Type = 0xFFFFFFF2)  returns 0x00000007 (0000ms, 0290ms total)
T20BC 000:455 JLINK_Go() (0002ms, 0292ms total)
T20BC 000:457 JLINK_IsHalted()  returns FALSE (0001ms, 0293ms total)
T20BC 000:463 JLINK_IsHalted() -- CPU_ReadMem(2 bytes @ 0x20000000)  returns TRUE (0006ms, 0298ms total)
T20BC 000:469 JLINK_ReadReg(R15)  returns 0x20000000 (0000ms, 0292ms total)
T20BC 000:469 JLINK_ClrBPEx(BPHandle = 0x00000007)  returns 0x00 (0000ms, 0292ms total)
T20BC 000:469 JLINK_ReadReg(R0)  returns 0x00000000 (0000ms, 0292ms total)
T20BC 000:470 JLINK_WriteReg(R0, 0x08000180)  returns 0x00 (0000ms, 0292ms total)
T20BC 000:470 JLINK_WriteReg(R1, 0x00000080)  returns 0x00 (0000ms, 0292ms total)
T20BC 000:470 JLINK_WriteReg(R2, 0x00000000)  returns 0x00 (0000ms, 0292ms total)
T20BC 000:470 JLINK_WriteReg(R3, 0x00000000)  returns 0x00 (0000ms, 0292ms total)
T20BC 000:470 JLINK_WriteReg(R4, 0x00000000)  returns 0x00 (0000ms, 0292ms total)
T20BC 000:470 JLINK_WriteReg(R5, 0x00000000)  returns 0x00 (0000ms, 0292ms total)
T20BC 000:470 JLINK_WriteReg(R6, 0x00000000)  returns 0x00 (0000ms, 0292ms total)
T20BC 000:470 JLINK_WriteReg(R7, 0x00000000)  returns 0x00 (0000ms, 0292ms total)
T20BC 000:470 JLINK_WriteReg(R8, 0x00000000)  returns 0x00 (0000ms, 0292ms total)
T20BC 000:470 JLINK_WriteReg(R9, 0x2000013C)  returns 0x00 (0000ms, 0292ms total)
T20BC 000:470 JLINK_WriteReg(R10, 0x00000000)  returns 0x00 (0000ms, 0292ms total)
T20BC 000:470 JLINK_WriteReg(R11, 0x00000000)  returns 0x00 (0000ms, 0292ms total)
T20BC 000:470 JLINK_WriteReg(R12, 0x00000000)  returns 0x00 (0000ms, 0292ms total)
T20BC 000:470 JLINK_WriteReg(R13, 0x20001000)  returns 0x00 (0000ms, 0292ms total)
T20BC 000:470 JLINK_WriteReg(R14, 0x20000001)  returns 0x00 (0000ms, 0292ms total)
T20BC 000:470 JLINK_WriteReg(R15, 0x200000B0)  returns 0x00 (0000ms, 0292ms total)
T20BC 000:470 JLINK_WriteReg(XPSR, 0x01000000)  returns 0x00 (0000ms, 0292ms total)
T20BC 000:470 JLINK_WriteReg(MSP, 0x20001000)  returns 0x00 (0000ms, 0292ms total)
T20BC 000:470 JLINK_WriteReg(PSP, 0x20001000)  returns 0x00 (0000ms, 0292ms total)
T20BC 000:470 JLINK_WriteReg(CFBP, 0x00000000)  returns 0x00 (0000ms, 0292ms total)
T20BC 000:470 JLINK_SetBPEx(Addr = 0x20000000, Type = 0xFFFFFFF2)  returns 0x00000008 (0000ms, 0292ms total)
T20BC 000:470 JLINK_Go() (0003ms, 0295ms total)
T20BC 000:473 JLINK_IsHalted() -- CPU_ReadMem(2 bytes @ 0x20000000)  returns TRUE (0006ms, 0301ms total)
T20BC 000:479 JLINK_ReadReg(R15)  returns 0x20000000 (0000ms, 0295ms total)
T20BC 000:479 JLINK_ClrBPEx(BPHandle = 0x00000008)  returns 0x00 (0000ms, 0295ms total)
T20BC 000:479 JLINK_ReadReg(R0)  returns 0x00000001 (0000ms, 0295ms total)
T20BC 000:479 JLINK_WriteReg(R0, 0x08000180)  returns 0x00 (0000ms, 0295ms total)
T20BC 000:479 JLINK_WriteReg(R1, 0x00000080)  returns 0x00 (0000ms, 0295ms total)
T20BC 000:479 JLINK_WriteReg(R2, 0x00000000)  returns 0x00 (0000ms, 0295ms total)
T20BC 000:479 JLINK_WriteReg(R3, 0x00000000)  returns 0x00 (0000ms, 0295ms total)
T20BC 000:479 JLINK_WriteReg(R4, 0x00000000)  returns 0x00 (0000ms, 0295ms total)
T20BC 000:479 JLINK_WriteReg(R5, 0x00000000)  returns 0x00 (0000ms, 0295ms total)
T20BC 000:479 JLINK_WriteReg(R6, 0x00000000)  returns 0x00 (0000ms, 0295ms total)
T20BC 000:479 JLINK_WriteReg(R7, 0x00000000)  returns 0x00 (0000ms, 0295ms total)
T20BC 000:479 JLINK_WriteReg(R8, 0x00000000)  returns 0x00 (0000ms, 0295ms total)
T20BC 000:479 JLINK_WriteReg(R9, 0x2000013C)  returns 0x00 (0000ms, 0295ms total)
T20BC 000:479 JLINK_WriteReg(R10, 0x00000000)  returns 0x00 (0000ms, 0295ms total)
T20BC 000:479 JLINK_WriteReg(R11, 0x00000000)  returns 0x00 (0000ms, 0295ms total)
T20BC 000:479 JLINK_WriteReg(R12, 0x00000000)  returns 0x00 (0000ms, 0295ms total)
T20BC 000:479 JLINK_WriteReg(R13, 0x20001000)  returns 0x00 (0000ms, 0295ms total)
T20BC 000:479 JLINK_WriteReg(R14, 0x20000001)  returns 0x00 (0000ms, 0295ms total)
T20BC 000:479 JLINK_WriteReg(R15, 0x2000007A)  returns 0x00 (0000ms, 0295ms total)
T20BC 000:479 JLINK_WriteReg(XPSR, 0x01000000)  returns 0x00 (0000ms, 0295ms total)
T20BC 000:479 JLINK_WriteReg(MSP, 0x20001000)  returns 0x00 (0000ms, 0295ms total)
T20BC 000:479 JLINK_WriteReg(PSP, 0x20001000)  returns 0x00 (0000ms, 0295ms total)
T20BC 000:479 JLINK_WriteReg(CFBP, 0x00000000)  returns 0x00 (0000ms, 0295ms total)
T20BC 000:479 JLINK_SetBPEx(Addr = 0x20000000, Type = 0xFFFFFFF2)  returns 0x00000009 (0000ms, 0295ms total)
T20BC 000:479 JLINK_Go() (0003ms, 0298ms total)
T20BC 000:482 JLINK_IsHalted()  returns FALSE (0001ms, 0299ms total)
T20BC 000:491 JLINK_IsHalted() -- CPU_ReadMem(2 bytes @ 0x20000000)  returns TRUE (0006ms, 0304ms total)
T20BC 000:497 JLINK_ReadReg(R15)  returns 0x20000000 (0000ms, 0298ms total)
T20BC 000:497 JLINK_ClrBPEx(BPHandle = 0x00000009)  returns 0x00 (0000ms, 0298ms total)
T20BC 000:497 JLINK_ReadReg(R0)  returns 0x00000000 (0000ms, 0298ms total)
T20BC 000:497 JLINK_WriteReg(R0, 0x08000200)  returns 0x00 (0000ms, 0298ms total)
T20BC 000:497 JLINK_WriteReg(R1, 0x00000080)  returns 0x00 (0000ms, 0298ms total)
T20BC 000:497 JLINK_WriteReg(R2, 0x00000000)  returns 0x00 (0000ms, 0298ms total)
T20BC 000:497 JLINK_WriteReg(R3, 0x00000000)  returns 0x00 (0000ms, 0298ms total)
T20BC 000:497 JLINK_WriteReg(R4, 0x00000000)  returns 0x00 (0000ms, 0298ms total)
T20BC 000:497 JLINK_WriteReg(R5, 0x00000000)  returns 0x00 (0000ms, 0298ms total)
T20BC 000:497 JLINK_WriteReg(R6, 0x00000000)  returns 0x00 (0000ms, 0298ms total)
T20BC 000:497 JLINK_WriteReg(R7, 0x00000000)  returns 0x00 (0000ms, 0298ms total)
T20BC 000:497 JLINK_WriteReg(R8, 0x00000000)  returns 0x00 (0000ms, 0298ms total)
T20BC 000:497 JLINK_WriteReg(R9, 0x2000013C)  returns 0x00 (0000ms, 0298ms total)
T20BC 000:497 JLINK_WriteReg(R10, 0x00000000)  returns 0x00 (0000ms, 0298ms total)
T20BC 000:497 JLINK_WriteReg(R11, 0x00000000)  returns 0x00 (0000ms, 0298ms total)
T20BC 000:497 JLINK_WriteReg(R12, 0x00000000)  returns 0x00 (0000ms, 0298ms total)
T20BC 000:497 JLINK_WriteReg(R13, 0x20001000)  returns 0x00 (0000ms, 0298ms total)
T20BC 000:497 JLINK_WriteReg(R14, 0x20000001)  returns 0x00 (0000ms, 0298ms total)
T20BC 000:497 JLINK_WriteReg(R15, 0x200000B0)  returns 0x00 (0000ms, 0298ms total)
T20BC 000:497 JLINK_WriteReg(XPSR, 0x01000000)  returns 0x00 (0000ms, 0298ms total)
T20BC 000:497 JLINK_WriteReg(MSP, 0x20001000)  returns 0x00 (0000ms, 0298ms total)
T20BC 000:497 JLINK_WriteReg(PSP, 0x20001000)  returns 0x00 (0000ms, 0298ms total)
T20BC 000:497 JLINK_WriteReg(CFBP, 0x00000000)  returns 0x00 (0000ms, 0298ms total)
T20BC 000:497 JLINK_SetBPEx(Addr = 0x20000000, Type = 0xFFFFFFF2)  returns 0x0000000A (0000ms, 0298ms total)
T20BC 000:497 JLINK_Go() (0003ms, 0301ms total)
T20BC 000:500 JLINK_IsHalted() -- CPU_ReadMem(2 bytes @ 0x20000000)  returns TRUE (0006ms, 0307ms total)
T20BC 000:506 JLINK_ReadReg(R15)  returns 0x20000000 (0000ms, 0301ms total)
T20BC 000:506 JLINK_ClrBPEx(BPHandle = 0x0000000A)  returns 0x00 (0000ms, 0301ms total)
T20BC 000:506 JLINK_ReadReg(R0)  returns 0x00000001 (0000ms, 0301ms total)
T20BC 000:506 JLINK_WriteReg(R0, 0x08000200)  returns 0x00 (0000ms, 0301ms total)
T20BC 000:506 JLINK_WriteReg(R1, 0x00000080)  returns 0x00 (0000ms, 0301ms total)
T20BC 000:506 JLINK_WriteReg(R2, 0x00000000)  returns 0x00 (0000ms, 0301ms total)
T20BC 000:506 JLINK_WriteReg(R3, 0x00000000)  returns 0x00 (0000ms, 0301ms total)
T20BC 000:506 JLINK_WriteReg(R4, 0x00000000)  returns 0x00 (0000ms, 0301ms total)
T20BC 000:506 JLINK_WriteReg(R5, 0x00000000)  returns 0x00 (0000ms, 0301ms total)
T20BC 000:506 JLINK_WriteReg(R6, 0x00000000)  returns 0x00 (0000ms, 0301ms total)
T20BC 000:506 JLINK_WriteReg(R7, 0x00000000)  returns 0x00 (0000ms, 0301ms total)
T20BC 000:506 JLINK_WriteReg(R8, 0x00000000)  returns 0x00 (0000ms, 0301ms total)
T20BC 000:506 JLINK_WriteReg(R9, 0x2000013C)  returns 0x00 (0000ms, 0301ms total)
T20BC 000:506 JLINK_WriteReg(R10, 0x00000000)  returns 0x00 (0000ms, 0301ms total)
T20BC 000:506 JLINK_WriteReg(R11, 0x00000000)  returns 0x00 (0000ms, 0301ms total)
T20BC 000:506 JLINK_WriteReg(R12, 0x00000000)  returns 0x00 (0000ms, 0301ms total)
T20BC 000:506 JLINK_WriteReg(R13, 0x20001000)  returns 0x00 (0000ms, 0301ms total)
T20BC 000:506 JLINK_WriteReg(R14, 0x20000001)  returns 0x00 (0000ms, 0301ms total)
T20BC 000:506 JLINK_WriteReg(R15, 0x2000007A)  returns 0x00 (0000ms, 0301ms total)
T20BC 000:506 JLINK_WriteReg(XPSR, 0x01000000)  returns 0x00 (0000ms, 0301ms total)
T20BC 000:506 JLINK_WriteReg(MSP, 0x20001000)  returns 0x00 (0000ms, 0301ms total)
T20BC 000:506 JLINK_WriteReg(PSP, 0x20001000)  returns 0x00 (0000ms, 0301ms total)
T20BC 000:506 JLINK_WriteReg(CFBP, 0x00000000)  returns 0x00 (0000ms, 0301ms total)
T20BC 000:506 JLINK_SetBPEx(Addr = 0x20000000, Type = 0xFFFFFFF2)  returns 0x0000000B (0000ms, 0301ms total)
T20BC 000:506 JLINK_Go() (0002ms, 0303ms total)
T20BC 000:508 JLINK_IsHalted()  returns FALSE (0001ms, 0304ms total)
T20BC 000:512 JLINK_IsHalted() -- CPU_ReadMem(2 bytes @ 0x20000000)  returns TRUE (0006ms, 0309ms total)
T20BC 000:518 JLINK_ReadReg(R15)  returns 0x20000000 (0000ms, 0303ms total)
T20BC 000:518 JLINK_ClrBPEx(BPHandle = 0x0000000B)  returns 0x00 (0000ms, 0303ms total)
T20BC 000:518 JLINK_ReadReg(R0)  returns 0x00000000 (0000ms, 0303ms total)
T20BC 000:519 JLINK_WriteReg(R0, 0x08000280)  returns 0x00 (0000ms, 0303ms total)
T20BC 000:519 JLINK_WriteReg(R1, 0x00000080)  returns 0x00 (0000ms, 0303ms total)
T20BC 000:519 JLINK_WriteReg(R2, 0x00000000)  returns 0x00 (0000ms, 0303ms total)
T20BC 000:519 JLINK_WriteReg(R3, 0x00000000)  returns 0x00 (0000ms, 0303ms total)
T20BC 000:519 JLINK_WriteReg(R4, 0x00000000)  returns 0x00 (0000ms, 0303ms total)
T20BC 000:519 JLINK_WriteReg(R5, 0x00000000)  returns 0x00 (0000ms, 0303ms total)
T20BC 000:519 JLINK_WriteReg(R6, 0x00000000)  returns 0x00 (0000ms, 0303ms total)
T20BC 000:519 JLINK_WriteReg(R7, 0x00000000)  returns 0x00 (0000ms, 0303ms total)
T20BC 000:519 JLINK_WriteReg(R8, 0x00000000)  returns 0x00 (0000ms, 0303ms total)
T20BC 000:519 JLINK_WriteReg(R9, 0x2000013C)  returns 0x00 (0000ms, 0303ms total)
T20BC 000:519 JLINK_WriteReg(R10, 0x00000000)  returns 0x00 (0000ms, 0303ms total)
T20BC 000:519 JLINK_WriteReg(R11, 0x00000000)  returns 0x00 (0000ms, 0303ms total)
T20BC 000:519 JLINK_WriteReg(R12, 0x00000000)  returns 0x00 (0000ms, 0303ms total)
T20BC 000:519 JLINK_WriteReg(R13, 0x20001000)  returns 0x00 (0000ms, 0303ms total)
T20BC 000:519 JLINK_WriteReg(R14, 0x20000001)  returns 0x00 (0000ms, 0303ms total)
T20BC 000:519 JLINK_WriteReg(R15, 0x200000B0)  returns 0x00 (0000ms, 0303ms total)
T20BC 000:519 JLINK_WriteReg(XPSR, 0x01000000)  returns 0x00 (0000ms, 0303ms total)
T20BC 000:519 JLINK_WriteReg(MSP, 0x20001000)  returns 0x00 (0000ms, 0303ms total)
T20BC 000:519 JLINK_WriteReg(PSP, 0x20001000)  returns 0x00 (0000ms, 0303ms total)
T20BC 000:519 JLINK_WriteReg(CFBP, 0x00000000)  returns 0x00 (0000ms, 0303ms total)
T20BC 000:519 JLINK_SetBPEx(Addr = 0x20000000, Type = 0xFFFFFFF2)  returns 0x0000000C (0000ms, 0303ms total)
T20BC 000:519 JLINK_Go() (0002ms, 0305ms total)
T20BC 000:521 JLINK_IsHalted() -- CPU_ReadMem(2 bytes @ 0x20000000)  returns TRUE (0006ms, 0311ms total)
T20BC 000:527 JLINK_ReadReg(R15)  returns 0x20000000 (0000ms, 0305ms total)
T20BC 000:527 JLINK_ClrBPEx(BPHandle = 0x0000000C)  returns 0x00 (0000ms, 0305ms total)
T20BC 000:527 JLINK_ReadReg(R0)  returns 0x00000001 (0000ms, 0305ms total)
T20BC 000:527 JLINK_WriteReg(R0, 0x08000280)  returns 0x00 (0000ms, 0305ms total)
T20BC 000:527 JLINK_WriteReg(R1, 0x00000080)  returns 0x00 (0001ms, 0306ms total)
T20BC 000:528 JLINK_WriteReg(R2, 0x00000000)  returns 0x00 (0000ms, 0306ms total)
T20BC 000:528 JLINK_WriteReg(R3, 0x00000000)  returns 0x00 (0000ms, 0306ms total)
T20BC 000:528 JLINK_WriteReg(R4, 0x00000000)  returns 0x00 (0000ms, 0306ms total)
T20BC 000:528 JLINK_WriteReg(R5, 0x00000000)  returns 0x00 (0000ms, 0306ms total)
T20BC 000:528 JLINK_WriteReg(R6, 0x00000000)  returns 0x00 (0000ms, 0306ms total)
T20BC 000:528 JLINK_WriteReg(R7, 0x00000000)  returns 0x00 (0000ms, 0306ms total)
T20BC 000:528 JLINK_WriteReg(R8, 0x00000000)  returns 0x00 (0000ms, 0306ms total)
T20BC 000:528 JLINK_WriteReg(R9, 0x2000013C)  returns 0x00 (0000ms, 0306ms total)
T20BC 000:528 JLINK_WriteReg(R10, 0x00000000)  returns 0x00 (0000ms, 0306ms total)
T20BC 000:528 JLINK_WriteReg(R11, 0x00000000)  returns 0x00 (0000ms, 0306ms total)
T20BC 000:528 JLINK_WriteReg(R12, 0x00000000)  returns 0x00 (0000ms, 0306ms total)
T20BC 000:528 JLINK_WriteReg(R13, 0x20001000)  returns 0x00 (0000ms, 0306ms total)
T20BC 000:528 JLINK_WriteReg(R14, 0x20000001)  returns 0x00 (0000ms, 0306ms total)
T20BC 000:528 JLINK_WriteReg(R15, 0x2000007A)  returns 0x00 (0000ms, 0306ms total)
T20BC 000:528 JLINK_WriteReg(XPSR, 0x01000000)  returns 0x00 (0000ms, 0306ms total)
T20BC 000:528 JLINK_WriteReg(MSP, 0x20001000)  returns 0x00 (0000ms, 0306ms total)
T20BC 000:528 JLINK_WriteReg(PSP, 0x20001000)  returns 0x00 (0000ms, 0306ms total)
T20BC 000:528 JLINK_WriteReg(CFBP, 0x00000000)  returns 0x00 (0000ms, 0306ms total)
T20BC 000:528 JLINK_SetBPEx(Addr = 0x20000000, Type = 0xFFFFFFF2)  returns 0x0000000D (0000ms, 0306ms total)
T20BC 000:528 JLINK_Go() (0002ms, 0308ms total)
T20BC 000:530 JLINK_IsHalted()  returns FALSE (0001ms, 0309ms total)
T20BC 000:550 JLINK_IsHalted() -- CPU_ReadMem(2 bytes @ 0x20000000)  returns TRUE (0006ms, 0314ms total)
T20BC 000:556 JLINK_ReadReg(R15)  returns 0x20000000 (0000ms, 0308ms total)
T20BC 000:556 JLINK_ClrBPEx(BPHandle = 0x0000000D)  returns 0x00 (0000ms, 0308ms total)
T20BC 000:556 JLINK_ReadReg(R0)  returns 0x00000000 (0000ms, 0308ms total)
T20BC 000:556 JLINK_WriteReg(R0, 0x08000300)  returns 0x00 (0000ms, 0308ms total)
T20BC 000:556 JLINK_WriteReg(R1, 0x00000080)  returns 0x00 (0000ms, 0308ms total)
T20BC 000:556 JLINK_WriteReg(R2, 0x00000000)  returns 0x00 (0000ms, 0308ms total)
T20BC 000:556 JLINK_WriteReg(R3, 0x00000000)  returns 0x00 (0000ms, 0308ms total)
T20BC 000:556 JLINK_WriteReg(R4, 0x00000000)  returns 0x00 (0000ms, 0308ms total)
T20BC 000:556 JLINK_WriteReg(R5, 0x00000000)  returns 0x00 (0000ms, 0308ms total)
T20BC 000:556 JLINK_WriteReg(R6, 0x00000000)  returns 0x00 (0000ms, 0308ms total)
T20BC 000:556 JLINK_WriteReg(R7, 0x00000000)  returns 0x00 (0000ms, 0308ms total)
T20BC 000:556 JLINK_WriteReg(R8, 0x00000000)  returns 0x00 (0000ms, 0308ms total)
T20BC 000:556 JLINK_WriteReg(R9, 0x2000013C)  returns 0x00 (0000ms, 0308ms total)
T20BC 000:556 JLINK_WriteReg(R10, 0x00000000)  returns 0x00 (0001ms, 0309ms total)
T20BC 000:557 JLINK_WriteReg(R11, 0x00000000)  returns 0x00 (0000ms, 0309ms total)
T20BC 000:557 JLINK_WriteReg(R12, 0x00000000)  returns 0x00 (0000ms, 0309ms total)
T20BC 000:557 JLINK_WriteReg(R13, 0x20001000)  returns 0x00 (0000ms, 0309ms total)
T20BC 000:557 JLINK_WriteReg(R14, 0x20000001)  returns 0x00 (0000ms, 0309ms total)
T20BC 000:557 JLINK_WriteReg(R15, 0x200000B0)  returns 0x00 (0000ms, 0309ms total)
T20BC 000:557 JLINK_WriteReg(XPSR, 0x01000000)  returns 0x00 (0000ms, 0309ms total)
T20BC 000:557 JLINK_WriteReg(MSP, 0x20001000)  returns 0x00 (0000ms, 0309ms total)
T20BC 000:557 JLINK_WriteReg(PSP, 0x20001000)  returns 0x00 (0000ms, 0309ms total)
T20BC 000:557 JLINK_WriteReg(CFBP, 0x00000000)  returns 0x00 (0000ms, 0309ms total)
T20BC 000:557 JLINK_SetBPEx(Addr = 0x20000000, Type = 0xFFFFFFF2)  returns 0x0000000E (0000ms, 0309ms total)
T20BC 000:557 JLINK_Go() (0002ms, 0311ms total)
T20BC 000:559 JLINK_IsHalted() -- CPU_ReadMem(2 bytes @ 0x20000000)  returns TRUE (0006ms, 0317ms total)
T20BC 000:565 JLINK_ReadReg(R15)  returns 0x20000000 (0000ms, 0311ms total)
T20BC 000:565 JLINK_ClrBPEx(BPHandle = 0x0000000E)  returns 0x00 (0000ms, 0311ms total)
T20BC 000:565 JLINK_ReadReg(R0)  returns 0x00000001 (0000ms, 0311ms total)
T20BC 000:565 JLINK_WriteReg(R0, 0x08000300)  returns 0x00 (0000ms, 0311ms total)
T20BC 000:565 JLINK_WriteReg(R1, 0x00000080)  returns 0x00 (0000ms, 0311ms total)
T20BC 000:565 JLINK_WriteReg(R2, 0x00000000)  returns 0x00 (0000ms, 0311ms total)
T20BC 000:565 JLINK_WriteReg(R3, 0x00000000)  returns 0x00 (0000ms, 0311ms total)
T20BC 000:565 JLINK_WriteReg(R4, 0x00000000)  returns 0x00 (0000ms, 0311ms total)
T20BC 000:565 JLINK_WriteReg(R5, 0x00000000)  returns 0x00 (0000ms, 0311ms total)
T20BC 000:565 JLINK_WriteReg(R6, 0x00000000)  returns 0x00 (0000ms, 0311ms total)
T20BC 000:565 JLINK_WriteReg(R7, 0x00000000)  returns 0x00 (0000ms, 0311ms total)
T20BC 000:565 JLINK_WriteReg(R8, 0x00000000)  returns 0x00 (0000ms, 0311ms total)
T20BC 000:565 JLINK_WriteReg(R9, 0x2000013C)  returns 0x00 (0000ms, 0311ms total)
T20BC 000:565 JLINK_WriteReg(R10, 0x00000000)  returns 0x00 (0000ms, 0311ms total)
T20BC 000:565 JLINK_WriteReg(R11, 0x00000000)  returns 0x00 (0000ms, 0311ms total)
T20BC 000:565 JLINK_WriteReg(R12, 0x00000000)  returns 0x00 (0000ms, 0311ms total)
T20BC 000:565 JLINK_WriteReg(R13, 0x20001000)  returns 0x00 (0000ms, 0311ms total)
T20BC 000:565 JLINK_WriteReg(R14, 0x20000001)  returns 0x00 (0000ms, 0311ms total)
T20BC 000:565 JLINK_WriteReg(R15, 0x2000007A)  returns 0x00 (0000ms, 0311ms total)
T20BC 000:565 JLINK_WriteReg(XPSR, 0x01000000)  returns 0x00 (0000ms, 0311ms total)
T20BC 000:565 JLINK_WriteReg(MSP, 0x20001000)  returns 0x00 (0000ms, 0311ms total)
T20BC 000:565 JLINK_WriteReg(PSP, 0x20001000)  returns 0x00 (0000ms, 0311ms total)
T20BC 000:565 JLINK_WriteReg(CFBP, 0x00000000)  returns 0x00 (0000ms, 0311ms total)
T20BC 000:565 JLINK_SetBPEx(Addr = 0x20000000, Type = 0xFFFFFFF2)  returns 0x0000000F (0000ms, 0311ms total)
T20BC 000:565 JLINK_Go() (0003ms, 0314ms total)
T20BC 000:568 JLINK_IsHalted()  returns FALSE (0001ms, 0315ms total)
T20BC 000:573 JLINK_IsHalted() -- CPU_ReadMem(2 bytes @ 0x20000000)  returns TRUE (0006ms, 0320ms total)
T20BC 000:579 JLINK_ReadReg(R15)  returns 0x20000000 (0000ms, 0314ms total)
T20BC 000:579 JLINK_ClrBPEx(BPHandle = 0x0000000F)  returns 0x00 (0000ms, 0314ms total)
T20BC 000:579 JLINK_ReadReg(R0)  returns 0x00000000 (0000ms, 0314ms total)
T20BC 000:579 JLINK_WriteReg(R0, 0x08000380)  returns 0x00 (0000ms, 0314ms total)
T20BC 000:579 JLINK_WriteReg(R1, 0x00000080)  returns 0x00 (0000ms, 0314ms total)
T20BC 000:579 JLINK_WriteReg(R2, 0x00000000)  returns 0x00 (0000ms, 0314ms total)
T20BC 000:579 JLINK_WriteReg(R3, 0x00000000)  returns 0x00 (0000ms, 0314ms total)
T20BC 000:579 JLINK_WriteReg(R4, 0x00000000)  returns 0x00 (0000ms, 0314ms total)
T20BC 000:579 JLINK_WriteReg(R5, 0x00000000)  returns 0x00 (0000ms, 0314ms total)
T20BC 000:579 JLINK_WriteReg(R6, 0x00000000)  returns 0x00 (0000ms, 0314ms total)
T20BC 000:579 JLINK_WriteReg(R7, 0x00000000)  returns 0x00 (0000ms, 0314ms total)
T20BC 000:579 JLINK_WriteReg(R8, 0x00000000)  returns 0x00 (0000ms, 0314ms total)
T20BC 000:579 JLINK_WriteReg(R9, 0x2000013C)  returns 0x00 (0000ms, 0314ms total)
T20BC 000:579 JLINK_WriteReg(R10, 0x00000000)  returns 0x00 (0000ms, 0314ms total)
T20BC 000:579 JLINK_WriteReg(R11, 0x00000000)  returns 0x00 (0000ms, 0314ms total)
T20BC 000:579 JLINK_WriteReg(R12, 0x00000000)  returns 0x00 (0000ms, 0314ms total)
T20BC 000:579 JLINK_WriteReg(R13, 0x20001000)  returns 0x00 (0000ms, 0314ms total)
T20BC 000:579 JLINK_WriteReg(R14, 0x20000001)  returns 0x00 (0000ms, 0314ms total)
T20BC 000:579 JLINK_WriteReg(R15, 0x200000B0)  returns 0x00 (0000ms, 0314ms total)
T20BC 000:579 JLINK_WriteReg(XPSR, 0x01000000)  returns 0x00 (0000ms, 0314ms total)
T20BC 000:579 JLINK_WriteReg(MSP, 0x20001000)  returns 0x00 (0000ms, 0314ms total)
T20BC 000:579 JLINK_WriteReg(PSP, 0x20001000)  returns 0x00 (0000ms, 0314ms total)
T20BC 000:579 JLINK_WriteReg(CFBP, 0x00000000)  returns 0x00 (0000ms, 0314ms total)
T20BC 000:579 JLINK_SetBPEx(Addr = 0x20000000, Type = 0xFFFFFFF2)  returns 0x00000010 (0000ms, 0314ms total)
T20BC 000:579 JLINK_Go() (0003ms, 0317ms total)
T20BC 000:582 JLINK_IsHalted() -- CPU_ReadMem(2 bytes @ 0x20000000)  returns TRUE (0006ms, 0323ms total)
T20BC 000:588 JLINK_ReadReg(R15)  returns 0x20000000 (0000ms, 0317ms total)
T20BC 000:588 JLINK_ClrBPEx(BPHandle = 0x00000010)  returns 0x00 (0000ms, 0317ms total)
T20BC 000:588 JLINK_ReadReg(R0)  returns 0x00000001 (0000ms, 0317ms total)
T20BC 000:588 JLINK_WriteReg(R0, 0x08000380)  returns 0x00 (0000ms, 0317ms total)
T20BC 000:588 JLINK_WriteReg(R1, 0x00000080)  returns 0x00 (0000ms, 0317ms total)
T20BC 000:588 JLINK_WriteReg(R2, 0x00000000)  returns 0x00 (0000ms, 0317ms total)
T20BC 000:588 JLINK_WriteReg(R3, 0x00000000)  returns 0x00 (0000ms, 0317ms total)
T20BC 000:588 JLINK_WriteReg(R4, 0x00000000)  returns 0x00 (0000ms, 0317ms total)
T20BC 000:588 JLINK_WriteReg(R5, 0x00000000)  returns 0x00 (0000ms, 0317ms total)
T20BC 000:588 JLINK_WriteReg(R6, 0x00000000)  returns 0x00 (0000ms, 0317ms total)
T20BC 000:588 JLINK_WriteReg(R7, 0x00000000)  returns 0x00 (0000ms, 0317ms total)
T20BC 000:588 JLINK_WriteReg(R8, 0x00000000)  returns 0x00 (0000ms, 0317ms total)
T20BC 000:588 JLINK_WriteReg(R9, 0x2000013C)  returns 0x00 (0000ms, 0317ms total)
T20BC 000:588 JLINK_WriteReg(R10, 0x00000000)  returns 0x00 (0000ms, 0317ms total)
T20BC 000:588 JLINK_WriteReg(R11, 0x00000000)  returns 0x00 (0000ms, 0317ms total)
T20BC 000:588 JLINK_WriteReg(R12, 0x00000000)  returns 0x00 (0000ms, 0317ms total)
T20BC 000:588 JLINK_WriteReg(R13, 0x20001000)  returns 0x00 (0000ms, 0317ms total)
T20BC 000:588 JLINK_WriteReg(R14, 0x20000001)  returns 0x00 (0000ms, 0317ms total)
T20BC 000:588 JLINK_WriteReg(R15, 0x2000007A)  returns 0x00 (0000ms, 0317ms total)
T20BC 000:588 JLINK_WriteReg(XPSR, 0x01000000)  returns 0x00 (0000ms, 0317ms total)
T20BC 000:588 JLINK_WriteReg(MSP, 0x20001000)  returns 0x00 (0000ms, 0317ms total)
T20BC 000:588 JLINK_WriteReg(PSP, 0x20001000)  returns 0x00 (0000ms, 0317ms total)
T20BC 000:588 JLINK_WriteReg(CFBP, 0x00000000)  returns 0x00 (0000ms, 0317ms total)
T20BC 000:588 JLINK_SetBPEx(Addr = 0x20000000, Type = 0xFFFFFFF2)  returns 0x00000011 (0000ms, 0317ms total)
T20BC 000:588 JLINK_Go() (0003ms, 0320ms total)
T20BC 000:591 JLINK_IsHalted()  returns FALSE (0001ms, 0321ms total)
T20BC 000:596 JLINK_IsHalted() -- CPU_ReadMem(2 bytes @ 0x20000000)  returns TRUE (0005ms, 0325ms total)
T20BC 000:601 JLINK_ReadReg(R15)  returns 0x20000000 (0001ms, 0321ms total)
T20BC 000:602 JLINK_ClrBPEx(BPHandle = 0x00000011)  returns 0x00 (0000ms, 0321ms total)
T20BC 000:602 JLINK_ReadReg(R0)  returns 0x00000000 (0000ms, 0321ms total)
T20BC 000:602 JLINK_WriteReg(R0, 0x08000400)  returns 0x00 (0000ms, 0321ms total)
T20BC 000:602 JLINK_WriteReg(R1, 0x00000080)  returns 0x00 (0000ms, 0321ms total)
T20BC 000:602 JLINK_WriteReg(R2, 0x00000000)  returns 0x00 (0000ms, 0321ms total)
T20BC 000:602 JLINK_WriteReg(R3, 0x00000000)  returns 0x00 (0000ms, 0321ms total)
T20BC 000:602 JLINK_WriteReg(R4, 0x00000000)  returns 0x00 (0000ms, 0321ms total)
T20BC 000:602 JLINK_WriteReg(R5, 0x00000000)  returns 0x00 (0000ms, 0321ms total)
T20BC 000:602 JLINK_WriteReg(R6, 0x00000000)  returns 0x00 (0000ms, 0321ms total)
T20BC 000:602 JLINK_WriteReg(R7, 0x00000000)  returns 0x00 (0000ms, 0321ms total)
T20BC 000:602 JLINK_WriteReg(R8, 0x00000000)  returns 0x00 (0000ms, 0321ms total)
T20BC 000:602 JLINK_WriteReg(R9, 0x2000013C)  returns 0x00 (0000ms, 0321ms total)
T20BC 000:602 JLINK_WriteReg(R10, 0x00000000)  returns 0x00 (0000ms, 0321ms total)
T20BC 000:602 JLINK_WriteReg(R11, 0x00000000)  returns 0x00 (0000ms, 0321ms total)
T20BC 000:602 JLINK_WriteReg(R12, 0x00000000)  returns 0x00 (0000ms, 0321ms total)
T20BC 000:602 JLINK_WriteReg(R13, 0x20001000)  returns 0x00 (0000ms, 0321ms total)
T20BC 000:602 JLINK_WriteReg(R14, 0x20000001)  returns 0x00 (0000ms, 0321ms total)
T20BC 000:602 JLINK_WriteReg(R15, 0x200000B0)  returns 0x00 (0000ms, 0321ms total)
T20BC 000:602 JLINK_WriteReg(XPSR, 0x01000000)  returns 0x00 (0000ms, 0321ms total)
T20BC 000:602 JLINK_WriteReg(MSP, 0x20001000)  returns 0x00 (0000ms, 0321ms total)
T20BC 000:602 JLINK_WriteReg(PSP, 0x20001000)  returns 0x00 (0000ms, 0321ms total)
T20BC 000:602 JLINK_WriteReg(CFBP, 0x00000000)  returns 0x00 (0000ms, 0321ms total)
T20BC 000:602 JLINK_SetBPEx(Addr = 0x20000000, Type = 0xFFFFFFF2)  returns 0x00000012 (0000ms, 0321ms total)
T20BC 000:602 JLINK_Go() (0003ms, 0324ms total)
T20BC 000:605 JLINK_IsHalted() -- CPU_ReadMem(2 bytes @ 0x20000000)  returns TRUE (0005ms, 0329ms total)
T20BC 000:610 JLINK_ReadReg(R15)  returns 0x20000000 (0000ms, 0324ms total)
T20BC 000:610 JLINK_ClrBPEx(BPHandle = 0x00000012)  returns 0x00 (0000ms, 0324ms total)
T20BC 000:610 JLINK_ReadReg(R0)  returns 0x00000001 (0000ms, 0324ms total)
T20BC 000:610 JLINK_WriteReg(R0, 0x08000400)  returns 0x00 (0000ms, 0324ms total)
T20BC 000:610 JLINK_WriteReg(R1, 0x00000080)  returns 0x00 (0000ms, 0324ms total)
T20BC 000:610 JLINK_WriteReg(R2, 0x00000000)  returns 0x00 (0000ms, 0324ms total)
T20BC 000:610 JLINK_WriteReg(R3, 0x00000000)  returns 0x00 (0001ms, 0325ms total)
T20BC 000:611 JLINK_WriteReg(R4, 0x00000000)  returns 0x00 (0000ms, 0325ms total)
T20BC 000:611 JLINK_WriteReg(R5, 0x00000000)  returns 0x00 (0000ms, 0325ms total)
T20BC 000:611 JLINK_WriteReg(R6, 0x00000000)  returns 0x00 (0000ms, 0325ms total)
T20BC 000:611 JLINK_WriteReg(R7, 0x00000000)  returns 0x00 (0000ms, 0325ms total)
T20BC 000:611 JLINK_WriteReg(R8, 0x00000000)  returns 0x00 (0000ms, 0325ms total)
T20BC 000:611 JLINK_WriteReg(R9, 0x2000013C)  returns 0x00 (0000ms, 0325ms total)
T20BC 000:611 JLINK_WriteReg(R10, 0x00000000)  returns 0x00 (0000ms, 0325ms total)
T20BC 000:611 JLINK_WriteReg(R11, 0x00000000)  returns 0x00 (0000ms, 0325ms total)
T20BC 000:611 JLINK_WriteReg(R12, 0x00000000)  returns 0x00 (0000ms, 0325ms total)
T20BC 000:611 JLINK_WriteReg(R13, 0x20001000)  returns 0x00 (0000ms, 0325ms total)
T20BC 000:611 JLINK_WriteReg(R14, 0x20000001)  returns 0x00 (0000ms, 0325ms total)
T20BC 000:611 JLINK_WriteReg(R15, 0x2000007A)  returns 0x00 (0000ms, 0325ms total)
T20BC 000:611 JLINK_WriteReg(XPSR, 0x01000000)  returns 0x00 (0000ms, 0325ms total)
T20BC 000:611 JLINK_WriteReg(MSP, 0x20001000)  returns 0x00 (0000ms, 0325ms total)
T20BC 000:611 JLINK_WriteReg(PSP, 0x20001000)  returns 0x00 (0000ms, 0325ms total)
T20BC 000:611 JLINK_WriteReg(CFBP, 0x00000000)  returns 0x00 (0000ms, 0325ms total)
T20BC 000:611 JLINK_SetBPEx(Addr = 0x20000000, Type = 0xFFFFFFF2)  returns 0x00000013 (0000ms, 0325ms total)
T20BC 000:611 JLINK_Go() (0002ms, 0327ms total)
T20BC 000:613 JLINK_IsHalted()  returns FALSE (0001ms, 0328ms total)
T20BC 000:619 JLINK_IsHalted() -- CPU_ReadMem(2 bytes @ 0x20000000)  returns TRUE (0006ms, 0333ms total)
T20BC 000:625 JLINK_ReadReg(R15)  returns 0x20000000 (0000ms, 0327ms total)
T20BC 000:625 JLINK_ClrBPEx(BPHandle = 0x00000013)  returns 0x00 (0000ms, 0327ms total)
T20BC 000:625 JLINK_ReadReg(R0)  returns 0x00000000 (0000ms, 0327ms total)
T20BC 000:625 JLINK_WriteReg(R0, 0x08000480)  returns 0x00 (0000ms, 0327ms total)
T20BC 000:625 JLINK_WriteReg(R1, 0x00000080)  returns 0x00 (0000ms, 0327ms total)
T20BC 000:625 JLINK_WriteReg(R2, 0x00000000)  returns 0x00 (0000ms, 0327ms total)
T20BC 000:625 JLINK_WriteReg(R3, 0x00000000)  returns 0x00 (0000ms, 0327ms total)
T20BC 000:625 JLINK_WriteReg(R4, 0x00000000)  returns 0x00 (0000ms, 0327ms total)
T20BC 000:625 JLINK_WriteReg(R5, 0x00000000)  returns 0x00 (0000ms, 0327ms total)
T20BC 000:625 JLINK_WriteReg(R6, 0x00000000)  returns 0x00 (0000ms, 0327ms total)
T20BC 000:625 JLINK_WriteReg(R7, 0x00000000)  returns 0x00 (0000ms, 0327ms total)
T20BC 000:625 JLINK_WriteReg(R8, 0x00000000)  returns 0x00 (0000ms, 0327ms total)
T20BC 000:625 JLINK_WriteReg(R9, 0x2000013C)  returns 0x00 (0000ms, 0327ms total)
T20BC 000:625 JLINK_WriteReg(R10, 0x00000000)  returns 0x00 (0000ms, 0327ms total)
T20BC 000:625 JLINK_WriteReg(R11, 0x00000000)  returns 0x00 (0000ms, 0327ms total)
T20BC 000:625 JLINK_WriteReg(R12, 0x00000000)  returns 0x00 (0000ms, 0327ms total)
T20BC 000:625 JLINK_WriteReg(R13, 0x20001000)  returns 0x00 (0000ms, 0327ms total)
T20BC 000:625 JLINK_WriteReg(R14, 0x20000001)  returns 0x00 (0000ms, 0327ms total)
T20BC 000:625 JLINK_WriteReg(R15, 0x200000B0)  returns 0x00 (0000ms, 0327ms total)
T20BC 000:625 JLINK_WriteReg(XPSR, 0x01000000)  returns 0x00 (0000ms, 0327ms total)
T20BC 000:625 JLINK_WriteReg(MSP, 0x20001000)  returns 0x00 (0000ms, 0327ms total)
T20BC 000:625 JLINK_WriteReg(PSP, 0x20001000)  returns 0x00 (0000ms, 0327ms total)
T20BC 000:625 JLINK_WriteReg(CFBP, 0x00000000)  returns 0x00 (0000ms, 0327ms total)
T20BC 000:625 JLINK_SetBPEx(Addr = 0x20000000, Type = 0xFFFFFFF2)  returns 0x00000014 (0000ms, 0327ms total)
T20BC 000:626 JLINK_Go() (0002ms, 0330ms total)
T20BC 000:628 JLINK_IsHalted() -- CPU_ReadMem(2 bytes @ 0x20000000)  returns TRUE (0006ms, 0336ms total)
T20BC 000:634 JLINK_ReadReg(R15)  returns 0x20000000 (0000ms, 0330ms total)
T20BC 000:634 JLINK_ClrBPEx(BPHandle = 0x00000014)  returns 0x00 (0000ms, 0330ms total)
T20BC 000:634 JLINK_ReadReg(R0)  returns 0x00000001 (0000ms, 0330ms total)
